#   Hz   S  RI   R   50
!
0.000000e+00 2.133421e-03 0.000000e+00 9.965496e-01 0.000000e+00 9.965495e-01 0.000000e+00 2.133183e-03 0.000000e+00
1.500000e+07 2.132353e-03 -4.988100e-05 9.965485e-01 -1.320944e-04 9.965484e-01 -1.314506e-04 2.132116e-03 -4.913189e-05
3.000000e+07 2.129152e-03 -9.966119e-05 9.965452e-01 -2.640862e-04 9.965451e-01 -2.627986e-04 2.128918e-03 -9.816299e-05
4.500000e+07 2.123828e-03 -1.492402e-04 9.965397e-01 -3.958730e-04 9.965396e-01 -3.939417e-04 2.123598e-03 -1.469929e-04
6.000000e+07 2.116394e-03 -1.985185e-04 9.965321e-01 -5.273536e-04 9.965320e-01 -5.247786e-04 2.116171e-03 -1.955223e-04
7.500000e+07 2.106872e-03 -2.473979e-04 9.965223e-01 -6.584278e-04 9.965222e-01 -6.552093e-04 2.106658e-03 -2.436528e-04
9.000000e+07 2.095288e-03 -2.957819e-04 9.965104e-01 -7.889975e-04 9.965103e-01 -7.851355e-04 2.095084e-03 -2.912879e-04
1.050000e+08 2.081674e-03 -3.435761e-04 9.964964e-01 -9.189664e-04 9.964963e-01 -9.144610e-04 2.081482e-03 -3.383334e-04
1.200000e+08 2.066067e-03 -3.906886e-04 9.964804e-01 -1.048241e-03 9.964802e-01 -1.043092e-03 2.065890e-03 -3.846972e-04
1.350000e+08 2.048510e-03 -4.370302e-04 9.964623e-01 -1.176730e-03 9.964622e-01 -1.170939e-03 2.048348e-03 -4.302904e-04
1.500000e+08 2.029049e-03 -4.825152e-04 9.964423e-01 -1.304347e-03 9.964422e-01 -1.297912e-03 2.028905e-03 -4.750270e-04
1.650000e+08 2.007737e-03 -5.270610e-04 9.964204e-01 -1.431007e-03 9.964203e-01 -1.423930e-03 2.007612e-03 -5.188247e-04
1.800000e+08 1.984629e-03 -5.705892e-04 9.963966e-01 -1.556631e-03 9.963965e-01 -1.548911e-03 1.984525e-03 -5.616049e-04
1.950000e+08 1.959786e-03 -6.130250e-04 9.963710e-01 -1.681142e-03 9.963709e-01 -1.672779e-03 1.959704e-03 -6.032930e-04
2.100000e+08 1.933271e-03 -6.542982e-04 9.963437e-01 -1.804468e-03 9.963436e-01 -1.795464e-03 1.933212e-03 -6.438187e-04
2.250000e+08 1.905151e-03 -6.943429e-04 9.963148e-01 -1.926543e-03 9.963147e-01 -1.916897e-03 1.905117e-03 -6.831161e-04
2.400000e+08 1.875495e-03 -7.330979e-04 9.962842e-01 -2.047304e-03 9.962842e-01 -2.037016e-03 1.875488e-03 -7.211240e-04
2.550000e+08 1.844378e-03 -7.705065e-04 9.962522e-01 -2.166693e-03 9.962521e-01 -2.155764e-03 1.844397e-03 -7.577859e-04
2.700000e+08 1.811871e-03 -8.065170e-04 9.962187e-01 -2.284658e-03 9.962186e-01 -2.273088e-03 1.811919e-03 -7.930499e-04
2.850000e+08 1.778054e-03 -8.410828e-04 9.961838e-01 -2.401151e-03 9.961838e-01 -2.388940e-03 1.778131e-03 -8.268695e-04
3.000000e+08 1.743002e-03 -8.741618e-04 9.961477e-01 -2.516129e-03 9.961476e-01 -2.503278e-03 1.743110e-03 -8.592026e-04
3.150000e+08 1.706795e-03 -9.057171e-04 9.961103e-01 -2.629554e-03 9.961103e-01 -2.616063e-03 1.706934e-03 -8.900124e-04
3.300000e+08 1.669514e-03 -9.357168e-04 9.960719e-01 -2.741394e-03 9.960718e-01 -2.727263e-03 1.669685e-03 -9.192668e-04
3.450000e+08 1.631237e-03 -9.641335e-04 9.960324e-01 -2.851621e-03 9.960323e-01 -2.836850e-03 1.631441e-03 -9.469387e-04
3.600000e+08 1.592046e-03 -9.909450e-04 9.959919e-01 -2.960212e-03 9.959918e-01 -2.944802e-03 1.592283e-03 -9.730056e-04
3.750000e+08 1.552020e-03 -1.016133e-03 9.959505e-01 -3.067149e-03 9.959505e-01 -3.051100e-03 1.552291e-03 -9.974499e-04
3.900000e+08 1.511240e-03 -1.039686e-03 9.959083e-01 -3.172418e-03 9.959083e-01 -3.155730e-03 1.511544e-03 -1.020258e-03
4.050000e+08 1.469783e-03 -1.061593e-03 9.958655e-01 -3.276010e-03 9.958654e-01 -3.258684e-03 1.470121e-03 -1.041423e-03
4.200000e+08 1.427728e-03 -1.081851e-03 9.958219e-01 -3.377921e-03 9.958219e-01 -3.359957e-03 1.428101e-03 -1.060938e-03
4.350000e+08 1.385151e-03 -1.100460e-03 9.957778e-01 -3.478150e-03 9.957778e-01 -3.459548e-03 1.385558e-03 -1.078804e-03
4.500000e+08 1.342126e-03 -1.117422e-03 9.957332e-01 -3.576701e-03 9.957332e-01 -3.557461e-03 1.342569e-03 -1.095024e-03
4.650000e+08 1.298729e-03 -1.132746e-03 9.956882e-01 -3.673580e-03 9.956882e-01 -3.653703e-03 1.299206e-03 -1.109605e-03
4.800000e+08 1.255029e-03 -1.146441e-03 9.956429e-01 -3.768799e-03 9.956429e-01 -3.748286e-03 1.255541e-03 -1.122560e-03
4.950000e+08 1.211096e-03 -1.158523e-03 9.955973e-01 -3.862372e-03 9.955973e-01 -3.841222e-03 1.211642e-03 -1.133901e-03
5.100000e+08 1.166997e-03 -1.169008e-03 9.955514e-01 -3.954317e-03 9.955515e-01 -3.932530e-03 1.167578e-03 -1.143645e-03
5.250000e+08 1.122798e-03 -1.177917e-03 9.955055e-01 -4.044652e-03 9.955055e-01 -4.022230e-03 1.123413e-03 -1.151814e-03
5.400000e+08 1.078560e-03 -1.185272e-03 9.954594e-01 -4.133403e-03 9.954595e-01 -4.110345e-03 1.079209e-03 -1.158430e-03
5.550000e+08 1.034345e-03 -1.191099e-03 9.954133e-01 -4.220594e-03 9.954134e-01 -4.196900e-03 1.035026e-03 -1.163518e-03
5.700000e+08 9.902079e-04 -1.195425e-03 9.953673e-01 -4.306253e-03 9.953674e-01 -4.281924e-03 9.909219e-04 -1.167105e-03
5.850000e+08 9.462052e-04 -1.198280e-03 9.953214e-01 -4.390411e-03 9.953215e-01 -4.365446e-03 9.469515e-04 -1.169222e-03
6.000000e+08 9.023888e-04 -1.199695e-03 9.952756e-01 -4.473098e-03 9.952757e-01 -4.447498e-03 9.031667e-04 -1.169900e-03
6.150000e+08 8.588082e-04 -1.199704e-03 9.952300e-01 -4.554349e-03 9.952301e-01 -4.528114e-03 8.596170e-04 -1.169172e-03
6.300000e+08 8.155103e-04 -1.198341e-03 9.951847e-01 -4.634198e-03 9.951848e-01 -4.607329e-03 8.163494e-04 -1.167072e-03
6.450000e+08 7.725393e-04 -1.195641e-03 9.951396e-01 -4.712681e-03 9.951398e-01 -4.685178e-03 7.734080e-04 -1.163636e-03
6.600000e+08 7.299367e-04 -1.191642e-03 9.950949e-01 -4.789837e-03 9.950951e-01 -4.761700e-03 7.308343e-04 -1.158902e-03
6.750000e+08 6.877415e-04 -1.186382e-03 9.950506e-01 -4.865703e-03 9.950507e-01 -4.836932e-03 6.886672e-04 -1.152906e-03
6.900000e+08 6.459901e-04 -1.179899e-03 9.950067e-01 -4.940318e-03 9.950068e-01 -4.910914e-03 6.469431e-04 -1.145688e-03
7.050000e+08 6.047163e-04 -1.172231e-03 9.949632e-01 -5.013723e-03 9.949633e-01 -4.983684e-03 6.056958e-04 -1.137287e-03
7.200000e+08 5.639515e-04 -1.163420e-03 9.949202e-01 -5.085956e-03 9.949203e-01 -5.055284e-03 5.649565e-04 -1.127742e-03
7.350000e+08 5.237244e-04 -1.153504e-03 9.948777e-01 -5.157058e-03 9.948778e-01 -5.125753e-03 5.247542e-04 -1.117093e-03
7.500000e+08 4.840617e-04 -1.142524e-03 9.948357e-01 -5.227071e-03 9.948359e-01 -5.195132e-03 4.851153e-04 -1.105380e-03
7.650000e+08 4.449875e-04 -1.130519e-03 9.947943e-01 -5.296034e-03 9.947945e-01 -5.263462e-03 4.460640e-04 -1.092644e-03
7.800000e+08 4.065239e-04 -1.117530e-03 9.947534e-01 -5.363988e-03 9.947536e-01 -5.330783e-03 4.076224e-04 -1.078924e-03
7.950000e+08 3.686906e-04 -1.103598e-03 9.947132e-01 -5.430973e-03 9.947134e-01 -5.397136e-03 3.698103e-04 -1.064260e-03
8.100000e+08 3.315055e-04 -1.088760e-03 9.946736e-01 -5.497031e-03 9.946738e-01 -5.462560e-03 3.326453e-04 -1.048692e-03
8.250000e+08 2.949844e-04 -1.073058e-03 9.946346e-01 -5.562199e-03 9.946348e-01 -5.527096e-03 2.961434e-04 -1.032259e-03
8.400000e+08 2.591409e-04 -1.056529e-03 9.945962e-01 -5.626519e-03 9.945965e-01 -5.590783e-03 2.603182e-04 -1.015001e-03
8.550000e+08 2.239873e-04 -1.039212e-03 9.945586e-01 -5.690028e-03 9.945588e-01 -5.653660e-03 2.251819e-04 -9.969550e-04
8.700000e+08 1.895336e-04 -1.021145e-03 9.945216e-01 -5.752766e-03 9.945218e-01 -5.715764e-03 1.907446e-04 -9.781597e-04
8.850000e+08 1.557886e-04 -1.002365e-03 9.944852e-01 -5.814769e-03 9.944855e-01 -5.777135e-03 1.570151e-04 -9.586520e-04
9.000000e+08 1.227591e-04 -9.829097e-04 9.944496e-01 -5.876074e-03 9.944499e-01 -5.837808e-03 1.240002e-04 -9.384686e-04
9.150000e+08 9.045079e-05 -9.628135e-04 9.944146e-01 -5.936719e-03 9.944149e-01 -5.897820e-03 9.170542e-05 -9.176454e-04
9.300000e+08 5.886760e-05 -9.421122e-04 9.943804e-01 -5.996738e-03 9.943807e-01 -5.957207e-03 6.013493e-05 -8.962175e-04
9.450000e+08 2.801227e-05 -9.208400e-04 9.943468e-01 -6.056167e-03 9.943471e-01 -6.016003e-03 2.929141e-05 -8.742192e-04
9.600000e+08 -2.113768e-06 -8.990305e-04 9.943140e-01 -6.115039e-03 9.943143e-01 -6.074242e-03 -8.237073e-07 -8.516841e-04
9.750000e+08 -3.151027e-05 -8.767163e-04 9.942818e-01 -6.173387e-03 9.942822e-01 -6.131957e-03 -3.021016e-05 -8.286448e-04
9.900000e+08 -6.017812e-05 -8.539295e-04 9.942504e-01 -6.231243e-03 9.942507e-01 -6.189181e-03 -5.886883e-05 -8.051332e-04
1.005000e+09 -8.811928e-05 -8.307007e-04 9.942196e-01 -6.288638e-03 9.942200e-01 -6.245944e-03 -8.680164e-05 -7.811803e-04
1.020000e+09 -1.153367e-04 -8.070603e-04 9.941895e-01 -6.345604e-03 9.941899e-01 -6.302277e-03 -1.140115e-04 -7.568160e-04
1.035000e+09 -1.418342e-04 -7.830373e-04 9.941602e-01 -6.402170e-03 9.941606e-01 -6.358210e-03 -1.405023e-04 -7.320697e-04
1.050000e+09 -1.676164e-04 -7.586601e-04 9.941315e-01 -6.458363e-03 9.941319e-01 -6.413771e-03 -1.662786e-04 -7.069696e-04
1.065000e+09 -1.926890e-04 -7.339561e-04 9.941035e-01 -6.514212e-03 9.941039e-01 -6.468987e-03 -1.913461e-04 -6.815430e-04
1.080000e+09 -2.170582e-04 -7.089516e-04 9.940762e-01 -6.569743e-03 9.940766e-01 -6.523885e-03 -2.157108e-04 -6.558165e-04
1.095000e+09 -2.407308e-04 -6.836725e-04 9.940495e-01 -6.624983e-03 9.940500e-01 -6.578492e-03 -2.393797e-04 -6.298157e-04
1.110000e+09 -2.637144e-04 -6.581432e-04 9.940236e-01 -6.679955e-03 9.940240e-01 -6.632832e-03 -2.623604e-04 -6.035652e-04
1.125000e+09 -2.860171e-04 -6.323877e-04 9.939982e-01 -6.734685e-03 9.939987e-01 -6.686929e-03 -2.846609e-04 -5.770889e-04
1.140000e+09 -3.076477e-04 -6.064289e-04 9.939736e-01 -6.789195e-03 9.939740e-01 -6.740806e-03 -3.062898e-04 -5.504096e-04
1.155000e+09 -3.286151e-04 -5.802889e-04 9.939495e-01 -6.843507e-03 9.939500e-01 -6.794485e-03 -3.272563e-04 -5.235496e-04
1.170000e+09 -3.489290e-04 -5.539889e-04 9.939261e-01 -6.897643e-03 9.939266e-01 -6.847988e-03 -3.475698e-04 -4.965298e-04
1.185000e+09 -3.685993e-04 -5.275493e-04 9.939033e-01 -6.951623e-03 9.939038e-01 -6.901335e-03 -3.672404e-04 -4.693709e-04
1.200000e+09 -3.876363e-04 -5.009895e-04 9.938811e-01 -7.005468e-03 9.938816e-01 -6.954546e-03 -3.862782e-04 -4.420922e-04
1.215000e+09 -4.060506e-04 -4.743285e-04 9.938595e-01 -7.059195e-03 9.938600e-01 -7.007640e-03 -4.046939e-04 -4.147125e-04
1.230000e+09 -4.238531e-04 -4.475840e-04 9.938385e-01 -7.112822e-03 9.938391e-01 -7.060634e-03 -4.224983e-04 -3.872498e-04
1.245000e+09 -4.410549e-04 -4.207733e-04 9.938181e-01 -7.166368e-03 9.938186e-01 -7.113546e-03 -4.397024e-04 -3.597211e-04
1.260000e+09 -4.576672e-04 -3.939128e-04 9.937982e-01 -7.219849e-03 9.937988e-01 -7.166393e-03 -4.563177e-04 -3.321430e-04
1.275000e+09 -4.737017e-04 -3.670181e-04 9.937789e-01 -7.273279e-03 9.937795e-01 -7.219190e-03 -4.723556e-04 -3.045310e-04
1.290000e+09 -4.891700e-04 -3.401042e-04 9.937601e-01 -7.326674e-03 9.937607e-01 -7.271951e-03 -4.878276e-04 -2.769000e-04
1.305000e+09 -5.040838e-04 -3.131852e-04 9.937419e-01 -7.380049e-03 9.937425e-01 -7.324692e-03 -5.027456e-04 -2.492643e-04
1.320000e+09 -5.184551e-04 -2.862747e-04 9.937242e-01 -7.433417e-03 9.937248e-01 -7.377426e-03 -5.171215e-04 -2.216374e-04
1.335000e+09 -5.322957e-04 -2.593855e-04 9.937070e-01 -7.486790e-03 9.937076e-01 -7.430166e-03 -5.309670e-04 -1.940320e-04
1.350000e+09 -5.456176e-04 -2.325299e-04 9.936902e-01 -7.540182e-03 9.936909e-01 -7.482923e-03 -5.442943e-04 -1.664605e-04
1.365000e+09 -5.584329e-04 -2.057194e-04 9.936740e-01 -7.593602e-03 9.936747e-01 -7.535709e-03 -5.571153e-04 -1.389343e-04
1.380000e+09 -5.707537e-04 -1.789649e-04 9.936582e-01 -7.647063e-03 9.936589e-01 -7.588536e-03 -5.694420e-04 -1.114644e-04
1.395000e+09 -5.825919e-04 -1.522768e-04 9.936429e-01 -7.700575e-03 9.936436e-01 -7.641413e-03 -5.812864e-04 -8.406115e-05
1.410000e+09 -5.939595e-04 -1.256649e-04 9.936281e-01 -7.754147e-03 9.936288e-01 -7.694351e-03 -5.926605e-04 -5.673425e-05
1.425000e+09 -6.048685e-04 -9.913833e-05 9.936136e-01 -7.807788e-03 9.936143e-01 -7.747358e-03 -6.035763e-04 -2.949292e-05
1.440000e+09 -6.153308e-04 -7.270578e-05 9.935996e-01 -7.861508e-03 9.936004e-01 -7.800443e-03 -6.140456e-04 -2.345816e-06
1.455000e+09 -6.253583e-04 -4.637540e-05 9.935861e-01 -7.915314e-03 9.935868e-01 -7.853614e-03 -6.240803e-04 2.469895e-05
1.470000e+09 -6.349627e-04 -2.015478e-05 9.935729e-01 -7.969213e-03 9.935736e-01 -7.906879e-03 -6.336921e-04 5.163376e-05
1.485000e+09 -6.441556e-04 5.948917e-06 9.935601e-01 -8.023213e-03 9.935608e-01 -7.960244e-03 -6.428926e-04 7.845150e-05
1.500000e+09 -6.529488e-04 3.192905e-05 9.935476e-01 -8.077320e-03 9.935484e-01 -8.013716e-03 -6.516934e-04 1.051455e-04
1.515000e+09 -6.613535e-04 5.777943e-05 9.935356e-01 -8.131541e-03 9.935364e-01 -8.067302e-03 -6.601060e-04 1.317096e-04
1.530000e+09 -6.693811e-04 8.349429e-05 9.935239e-01 -8.185880e-03 9.935247e-01 -8.121006e-03 -6.681416e-04 1.581381e-04
1.545000e+09 -6.770429e-04 1.090683e-04 9.935125e-01 -8.240344e-03 9.935133e-01 -8.174835e-03 -6.758115e-04 1.844256e-04
1.560000e+09 -6.843499e-04 1.344966e-04 9.935015e-01 -8.294937e-03 9.935023e-01 -8.228793e-03 -6.831266e-04 2.105672e-04
1.575000e+09 -6.913130e-04 1.597745e-04 9.934908e-01 -8.349663e-03 9.934916e-01 -8.282884e-03 -6.900980e-04 2.365585e-04
1.590000e+09 -6.979430e-04 1.848981e-04 9.934804e-01 -8.404526e-03 9.934812e-01 -8.337112e-03 -6.967363e-04 2.623952e-04
1.605000e+09 -7.042505e-04 2.098634e-04 9.934703e-01 -8.459531e-03 9.934712e-01 -8.391481e-03 -7.030522e-04 2.880736e-04
1.620000e+09 -7.102460e-04 2.346672e-04 9.934605e-01 -8.514680e-03 9.934614e-01 -8.445995e-03 -7.090561e-04 3.135904e-04
1.635000e+09 -7.159398e-04 2.593062e-04 9.934510e-01 -8.569976e-03 9.934519e-01 -8.500655e-03 -7.147583e-04 3.389424e-04
1.650000e+09 -7.213420e-04 2.837778e-04 9.934417e-01 -8.625422e-03 9.934426e-01 -8.555466e-03 -7.201689e-04 3.641269e-04
1.665000e+09 -7.264626e-04 3.080794e-04 9.934327e-01 -8.681020e-03 9.934337e-01 -8.610428e-03 -7.252979e-04 3.891415e-04
1.680000e+09 -7.313113e-04 3.322091e-04 9.934240e-01 -8.736772e-03 9.934249e-01 -8.665545e-03 -7.301551e-04 4.139840e-04
1.695000e+09 -7.358978e-04 3.561648e-04 9.934155e-01 -8.792680e-03 9.934164e-01 -8.720818e-03 -7.347499e-04 4.386526e-04
1.710000e+09 -7.402314e-04 3.799450e-04 9.934072e-01 -8.848746e-03 9.934082e-01 -8.776247e-03 -7.390919e-04 4.631456e-04
1.725000e+09 -7.443215e-04 4.035484e-04 9.933992e-01 -8.904969e-03 9.934002e-01 -8.831836e-03 -7.431903e-04 4.874619e-04
1.740000e+09 -7.481771e-04 4.269740e-04 9.933914e-01 -8.961353e-03 9.933923e-01 -8.887583e-03 -7.470541e-04 5.116003e-04
1.755000e+09 -7.518070e-04 4.502208e-04 9.933837e-01 -9.017896e-03 9.933847e-01 -8.943491e-03 -7.506923e-04 5.355600e-04
1.770000e+09 -7.552200e-04 4.732883e-04 9.933763e-01 -9.074600e-03 9.933773e-01 -8.999559e-03 -7.541134e-04 5.593405e-04
1.785000e+09 -7.584246e-04 4.961762e-04 9.933691e-01 -9.131464e-03 9.933701e-01 -9.055787e-03 -7.573261e-04 5.829413e-04
1.800000e+09 -7.614291e-04 5.188842e-04 9.933620e-01 -9.188489e-03 9.933630e-01 -9.112177e-03 -7.603385e-04 6.063623e-04
1.815000e+09 -7.642416e-04 5.414124e-04 9.933551e-01 -9.245675e-03 9.933562e-01 -9.168727e-03 -7.631590e-04 6.296036e-04
1.830000e+09 -7.668701e-04 5.637611e-04 9.933484e-01 -9.303021e-03 9.933495e-01 -9.225437e-03 -7.657953e-04 6.526654e-04
1.845000e+09 -7.693224e-04 5.859305e-04 9.933418e-01 -9.360526e-03 9.933429e-01 -9.282306e-03 -7.682553e-04 6.755481e-04
1.860000e+09 -7.716061e-04 6.079214e-04 9.933354e-01 -9.418191e-03 9.933365e-01 -9.339334e-03 -7.705465e-04 6.982523e-04
1.875000e+09 -7.737285e-04 6.297344e-04 9.933291e-01 -9.476013e-03 9.933302e-01 -9.396521e-03 -7.726764e-04 7.207787e-04
1.890000e+09 -7.756968e-04 6.513705e-04 9.933230e-01 -9.533992e-03 9.933241e-01 -9.453864e-03 -7.746521e-04 7.431283e-04
1.905000e+09 -7.775182e-04 6.728307e-04 9.933170e-01 -9.592126e-03 9.933181e-01 -9.511362e-03 -7.764807e-04 7.653022e-04
1.920000e+09 -7.791994e-04 6.941162e-04 9.933111e-01 -9.650415e-03 9.933122e-01 -9.569015e-03 -7.781691e-04 7.873014e-04
1.935000e+09 -7.807471e-04 7.152283e-04 9.933053e-01 -9.708857e-03 9.933065e-01 -9.626821e-03 -7.797238e-04 8.091274e-04
1.950000e+09 -7.821678e-04 7.361685e-04 9.932996e-01 -9.767450e-03 9.933008e-01 -9.684778e-03 -7.811515e-04 8.307816e-04
1.965000e+09 -7.834679e-04 7.569383e-04 9.932940e-01 -9.826192e-03 9.932952e-01 -9.742885e-03 -7.824584e-04 8.522656e-04
1.980000e+09 -7.846535e-04 7.775395e-04 9.932886e-01 -9.885083e-03 9.932898e-01 -9.801139e-03 -7.836507e-04 8.735811e-04
1.995000e+09 -7.857306e-04 7.979737e-04 9.932832e-01 -9.944119e-03 9.932844e-01 -9.859540e-03 -7.847342e-04 8.947298e-04
2.010000e+09 -7.867048e-04 8.182430e-04 9.932779e-01 -1.000330e-02 9.932791e-01 -9.918084e-03 -7.857149e-04 9.157137e-04
2.025000e+09 -7.875820e-04 8.383492e-04 9.932726e-01 -1.006262e-02 9.932739e-01 -9.976769e-03 -7.865984e-04 9.365348e-04
2.040000e+09 -7.883675e-04 8.582944e-04 9.932675e-01 -1.012208e-02 9.932688e-01 -1.003559e-02 -7.873901e-04 9.571950e-04
2.055000e+09 -7.890667e-04 8.780809e-04 9.932624e-01 -1.018168e-02 9.932637e-01 -1.009456e-02 -7.880953e-04 9.776966e-04
2.070000e+09 -7.896846e-04 8.977107e-04 9.932574e-01 -1.024141e-02 9.932587e-01 -1.015365e-02 -7.887192e-04 9.980419e-04
2.085000e+09 -7.902262e-04 9.171863e-04 9.932524e-01 -1.030128e-02 9.932538e-01 -1.021288e-02 -7.892666e-04 1.018233e-03
2.100000e+09 -7.906964e-04 9.365099e-04 9.932475e-01 -1.036127e-02 9.932489e-01 -1.027224e-02 -7.897425e-04 1.038272e-03
2.115000e+09 -7.910998e-04 9.556840e-04 9.932427e-01 -1.042139e-02 9.932441e-01 -1.033173e-02 -7.901515e-04 1.058162e-03
2.130000e+09 -7.914408e-04 9.747111e-04 9.932379e-01 -1.048164e-02 9.932393e-01 -1.039134e-02 -7.904980e-04 1.077906e-03
2.145000e+09 -7.917239e-04 9.935936e-04 9.932331e-01 -1.054201e-02 9.932345e-01 -1.045107e-02 -7.907864e-04 1.097505e-03
2.160000e+09 -7.919531e-04 1.012334e-03 9.932284e-01 -1.060250e-02 9.932298e-01 -1.051093e-02 -7.910210e-04 1.116962e-03
2.175000e+09 -7.921327e-04 1.030936e-03 9.932237e-01 -1.066310e-02 9.932251e-01 -1.057090e-02 -7.912057e-04 1.136280e-03
2.190000e+09 -7.922663e-04 1.049400e-03 9.932190e-01 -1.072382e-02 9.932204e-01 -1.063098e-02 -7.913445e-04 1.155462e-03
2.205000e+09 -7.923579e-04 1.067731e-03 9.932143e-01 -1.078465e-02 9.932158e-01 -1.069118e-02 -7.914410e-04 1.174510e-03
2.220000e+09 -7.924109e-04 1.085930e-03 9.932097e-01 -1.084559e-02 9.932112e-01 -1.075148e-02 -7.914990e-04 1.193427e-03
2.235000e+09 -7.924290e-04 1.104001e-03 9.932051e-01 -1.090664e-02 9.932066e-01 -1.081189e-02 -7.915219e-04 1.212215e-03
2.250000e+09 -7.924153e-04 1.121946e-03 9.932005e-01 -1.096778e-02 9.932020e-01 -1.087240e-02 -7.915129e-04 1.230879e-03
2.265000e+09 -7.923731e-04 1.139769e-03 9.931959e-01 -1.102903e-02 9.931975e-01 -1.093301e-02 -7.914755e-04 1.249419e-03
2.280000e+09 -7.923055e-04 1.157471e-03 9.931914e-01 -1.109037e-02 9.931929e-01 -1.099372e-02 -7.914125e-04 1.267840e-03
2.295000e+09 -7.922154e-04 1.175055e-03 9.931868e-01 -1.115181e-02 9.931884e-01 -1.105452e-02 -7.913269e-04 1.286143e-03
2.310000e+09 -7.921055e-04 1.192526e-03 9.931822e-01 -1.121334e-02 9.931838e-01 -1.111542e-02 -7.912216e-04 1.304333e-03
2.325000e+09 -7.919787e-04 1.209884e-03 9.931777e-01 -1.127496e-02 9.931793e-01 -1.117640e-02 -7.910992e-04 1.322411e-03
2.340000e+09 -7.918374e-04 1.227134e-03 9.931731e-01 -1.133666e-02 9.931748e-01 -1.123746e-02 -7.909624e-04 1.340380e-03
2.355000e+09 -7.916840e-04 1.244278e-03 9.931686e-01 -1.139844e-02 9.931702e-01 -1.129861e-02 -7.908134e-04 1.358244e-03
2.370000e+09 -7.915210e-04 1.261319e-03 9.931640e-01 -1.146031e-02 9.931657e-01 -1.135984e-02 -7.906548e-04 1.376005e-03
2.385000e+09 -7.913504e-04 1.278260e-03 9.931594e-01 -1.152225e-02 9.931611e-01 -1.142115e-02 -7.904886e-04 1.393666e-03
2.400000e+09 -7.911744e-04 1.295103e-03 9.931548e-01 -1.158426e-02 9.931565e-01 -1.148253e-02 -7.903169e-04 1.411229e-03
2.415000e+09 -7.909949e-04 1.311851e-03 9.931502e-01 -1.164635e-02 9.931520e-01 -1.154398e-02 -7.901418e-04 1.428699e-03
2.430000e+09 -7.908139e-04 1.328508e-03 9.931456e-01 -1.170850e-02 9.931474e-01 -1.160550e-02 -7.899652e-04 1.446076e-03
2.445000e+09 -7.906330e-04 1.345076e-03 9.931410e-01 -1.177072e-02 9.931427e-01 -1.166708e-02 -7.897887e-04 1.463366e-03
