#   Hz   S  RI   R   50
!
0.000000e+00 5.225644e-03 0.000000e+00 9.946799e-01 0.000000e+00 9.946794e-01 0.000000e+00 5.226144e-03 0.000000e+00
1.500000e+07 5.223270e-03 -5.675027e-05 9.946771e-01 -1.980561e-04 9.946766e-01 -1.977157e-04 5.223771e-03 -5.636423e-05
3.000000e+07 5.216163e-03 -1.131641e-04 9.946686e-01 -3.957058e-04 9.946681e-01 -3.950251e-04 5.216667e-03 -1.123922e-04
4.500000e+07 5.204368e-03 -1.689080e-04 9.946545e-01 -5.925467e-04 9.946540e-01 -5.915257e-04 5.204876e-03 -1.677504e-04
6.000000e+07 5.187956e-03 -2.236544e-04 9.946350e-01 -7.881835e-04 9.946345e-01 -7.868223e-04 5.188469e-03 -2.221116e-04
7.500000e+07 5.167027e-03 -2.770843e-04 9.946100e-01 -9.822322e-04 9.946095e-01 -9.805308e-04 5.167548e-03 -2.751569e-04
9.000000e+07 5.141709e-03 -3.288904e-04 9.945799e-01 -1.174323e-03 9.945794e-01 -1.172282e-03 5.142239e-03 -3.265790e-04
1.050000e+08 5.112152e-03 -3.787790e-04 9.945447e-01 -1.364104e-03 9.945442e-01 -1.361722e-03 5.112693e-03 -3.760843e-04
1.200000e+08 5.078533e-03 -4.264728e-04 9.945046e-01 -1.551243e-03 9.945041e-01 -1.548521e-03 5.079085e-03 -4.233959e-04
1.350000e+08 5.041047e-03 -4.717131e-04 9.944600e-01 -1.735431e-03 9.944596e-01 -1.732371e-03 5.041613e-03 -4.682548e-04
1.500000e+08 4.999912e-03 -5.142609e-04 9.944111e-01 -1.916387e-03 9.944106e-01 -1.912987e-03 5.000493e-03 -5.104225e-04
1.650000e+08 4.955360e-03 -5.538995e-04 9.943582e-01 -2.093854e-03 9.943577e-01 -2.090114e-03 4.955956e-03 -5.496820e-04
1.800000e+08 4.907639e-03 -5.904348e-04 9.943015e-01 -2.267605e-03 9.943011e-01 -2.263526e-03 4.908252e-03 -5.858396e-04
1.950000e+08 4.857008e-03 -6.236971e-04 9.942414e-01 -2.437443e-03 9.942410e-01 -2.433025e-03 4.857639e-03 -6.187255e-04
2.100000e+08 4.803737e-03 -6.535411e-04 9.941783e-01 -2.603204e-03 9.941779e-01 -2.598447e-03 4.804387e-03 -6.481945e-04
2.250000e+08 4.748102e-03 -6.798467e-04 9.941124e-01 -2.764751e-03 9.941120e-01 -2.759655e-03 4.748772e-03 -6.741265e-04
2.400000e+08 4.690383e-03 -7.025190e-04 9.940441e-01 -2.921983e-03 9.940437e-01 -2.916548e-03 4.691075e-03 -6.964267e-04
2.550000e+08 4.630863e-03 -7.214881e-04 9.939738e-01 -3.074827e-03 9.939734e-01 -3.069054e-03 4.631576e-03 -7.150252e-04
2.700000e+08 4.569823e-03 -7.367084e-04 9.939017e-01 -3.223241e-03 9.939013e-01 -3.217129e-03 4.570559e-03 -7.298764e-04
2.850000e+08 4.507543e-03 -7.481586e-04 9.938282e-01 -3.367212e-03 9.938278e-01 -3.360762e-03 4.508301e-03 -7.409590e-04
3.000000e+08 4.444296e-03 -7.558399e-04 9.937537e-01 -3.506757e-03 9.937533e-01 -3.499969e-03 4.445077e-03 -7.482743e-04
3.150000e+08 4.380349e-03 -7.597757e-04 9.936784e-01 -3.641918e-03 9.936781e-01 -3.634791e-03 4.381154e-03 -7.518455e-04
3.300000e+08 4.315960e-03 -7.600099e-04 9.936027e-01 -3.772762e-03 9.936024e-01 -3.765297e-03 4.316790e-03 -7.517166e-04
3.450000e+08 4.251378e-03 -7.566055e-04 9.935269e-01 -3.899380e-03 9.935265e-01 -3.891577e-03 4.252232e-03 -7.479506e-04
3.600000e+08 4.186837e-03 -7.496434e-04 9.934511e-01 -4.021884e-03 9.934508e-01 -4.013741e-03 4.187716e-03 -7.406283e-04
3.750000e+08 4.122562e-03 -7.392205e-04 9.933758e-01 -4.140403e-03 9.933755e-01 -4.131922e-03 4.123465e-03 -7.298465e-04
3.900000e+08 4.058760e-03 -7.254481e-04 9.933011e-01 -4.255086e-03 9.933008e-01 -4.246266e-03 4.059688e-03 -7.157165e-04
4.050000e+08 3.995625e-03 -7.084501e-04 9.932272e-01 -4.366094e-03 9.932269e-01 -4.356936e-03 3.996578e-03 -6.983623e-04
4.200000e+08 3.933336e-03 -6.883617e-04 9.931544e-01 -4.473602e-03 9.931541e-01 -4.464104e-03 3.934314e-03 -6.779189e-04
4.350000e+08 3.872056e-03 -6.653270e-04 9.930828e-01 -4.577794e-03 9.930825e-01 -4.567957e-03 3.873059e-03 -6.545303e-04
4.500000e+08 3.811929e-03 -6.394979e-04 9.930126e-01 -4.678862e-03 9.930124e-01 -4.668686e-03 3.812957e-03 -6.283484e-04
4.650000e+08 3.753086e-03 -6.110319e-04 9.929439e-01 -4.777004e-03 9.929437e-01 -4.766488e-03 3.754139e-03 -5.995307e-04
4.800000e+08 3.695640e-03 -5.800912e-04 9.928769e-01 -4.872422e-03 9.928767e-01 -4.861566e-03 3.696718e-03 -5.682392e-04
4.950000e+08 3.639689e-03 -5.468403e-04 9.928116e-01 -4.965319e-03 9.928114e-01 -4.954123e-03 3.640791e-03 -5.346384e-04
5.100000e+08 3.585314e-03 -5.114452e-04 9.927481e-01 -5.055898e-03 9.927479e-01 -5.044361e-03 3.586440e-03 -4.988942e-04
5.250000e+08 3.532581e-03 -4.740716e-04 9.926865e-01 -5.144360e-03 9.926863e-01 -5.132483e-03 3.533731e-03 -4.611724e-04
5.400000e+08 3.481541e-03 -4.348841e-04 9.926268e-01 -5.230904e-03 9.926266e-01 -5.218686e-03 3.482716e-03 -4.216373e-04
5.550000e+08 3.432234e-03 -3.940443e-04 9.925690e-01 -5.315722e-03 9.925689e-01 -5.303163e-03 3.433433e-03 -3.804506e-04
5.700000e+08 3.384682e-03 -3.517104e-04 9.925132e-01 -5.399002e-03 9.925131e-01 -5.386101e-03 3.385905e-03 -3.377705e-04
5.850000e+08 3.338899e-03 -3.080360e-04 9.924594e-01 -5.480922e-03 9.924593e-01 -5.467679e-03 3.340146e-03 -2.937503e-04
6.000000e+08 3.294883e-03 -2.631690e-04 9.924075e-01 -5.561654e-03 9.924074e-01 -5.548069e-03 3.296154e-03 -2.485381e-04
6.150000e+08 3.252626e-03 -2.172512e-04 9.923574e-01 -5.641360e-03 9.923573e-01 -5.627433e-03 3.253920e-03 -2.022755e-04
6.300000e+08 3.212106e-03 -1.704176e-04 9.923093e-01 -5.720192e-03 9.923092e-01 -5.705922e-03 3.213424e-03 -1.550975e-04
6.450000e+08 3.173296e-03 -1.227957e-04 9.922629e-01 -5.798293e-03 9.922628e-01 -5.783680e-03 3.174638e-03 -1.071315e-04
6.600000e+08 3.136159e-03 -7.450517e-05 9.922183e-01 -5.875793e-03 9.922182e-01 -5.860837e-03 3.137524e-03 -5.849729e-05
6.750000e+08 3.100651e-03 -2.565773e-05 9.921753e-01 -5.952813e-03 9.921753e-01 -5.937514e-03 3.102040e-03 -9.306406e-06
6.900000e+08 3.066724e-03 2.364336e-05 9.921340e-01 -6.029461e-03 9.921340e-01 -6.013819e-03 3.068137e-03 4.033790e-05
7.050000e+08 3.034324e-03 7.330329e-05 9.920942e-01 -6.105837e-03 9.920942e-01 -6.089850e-03 3.035761e-03 9.034082e-05
7.200000e+08 3.003393e-03 1.232357e-04 9.920558e-01 -6.182026e-03 9.920558e-01 -6.165696e-03 3.004853e-03 1.406160e-04
7.350000e+08 2.973869e-03 1.733626e-04 9.920189e-01 -6.258106e-03 9.920189e-01 -6.241432e-03 2.975353e-03 1.910856e-04
7.500000e+08 2.945691e-03 2.236145e-04 9.919832e-01 -6.334141e-03 9.919832e-01 -6.317124e-03 2.947198e-03 2.416800e-04
7.650000e+08 2.918792e-03 2.739297e-04 9.919487e-01 -6.410189e-03 9.919487e-01 -6.392827e-03 2.920324e-03 2.923376e-04
7.800000e+08 2.893108e-03 3.242546e-04 9.919153e-01 -6.486295e-03 9.919153e-01 -6.468589e-03 2.894664e-03 3.430048e-04
7.950000e+08 2.868574e-03 3.745431e-04 9.918830e-01 -6.562497e-03 9.918830e-01 -6.544447e-03 2.870154e-03 3.936354e-04
8.100000e+08 2.845125e-03 4.247560e-04 9.918516e-01 -6.638823e-03 9.918516e-01 -6.620429e-03 2.846728e-03 4.441904e-04
8.250000e+08 2.822697e-03 4.748611e-04 9.918211e-01 -6.715294e-03 9.918212e-01 -6.696556e-03 2.824325e-03 4.946375e-04
8.400000e+08 2.801229e-03 5.248325e-04 9.917914e-01 -6.791925e-03 9.917915e-01 -6.772843e-03 2.802881e-03 5.449508e-04
8.550000e+08 2.780660e-03 5.746499e-04 9.917625e-01 -6.868724e-03 9.917626e-01 -6.849298e-03 2.782337e-03 5.951101e-04
8.700000e+08 2.760935e-03 6.242985e-04 9.917343e-01 -6.945692e-03 9.917344e-01 -6.925923e-03 2.762636e-03 6.451006e-04
8.850000e+08 2.741998e-03 6.737684e-04 9.917067e-01 -7.022827e-03 9.917068e-01 -7.002714e-03 2.743724e-03 6.949124e-04
9.000000e+08 2.723799e-03 7.230539e-04 9.916797e-01 -7.100121e-03 9.916798e-01 -7.079664e-03 2.725550e-03 7.445396e-04
9.150000e+08 2.706290e-03 7.721531e-04 9.916532e-01 -7.177563e-03 9.916533e-01 -7.156763e-03 2.708065e-03 7.939806e-04
9.300000e+08 2.689426e-03 8.210675e-04 9.916272e-01 -7.255141e-03 9.916273e-01 -7.233998e-03 2.691227e-03 8.432368e-04
9.450000e+08 2.673167e-03 8.698015e-04 9.916016e-01 -7.332838e-03 9.916018e-01 -7.311352e-03 2.674993e-03 8.923125e-04
9.600000e+08 2.657476e-03 9.183615e-04 9.915765e-01 -7.410637e-03 9.915766e-01 -7.388808e-03 2.659326e-03 9.412142e-04
9.750000e+08 2.642319e-03 9.667562e-04 9.915517e-01 -7.488520e-03 9.915519e-01 -7.466348e-03 2.644194e-03 9.899506e-04
9.900000e+08 2.627665e-03 1.014995e-03 9.915273e-01 -7.566467e-03 9.915275e-01 -7.543953e-03 2.629566e-03 1.038531e-03
1.005000e+09 2.613489e-03 1.063090e-03 9.915032e-01 -7.644460e-03 9.915034e-01 -7.621603e-03 2.615415e-03 1.086968e-03
1.020000e+09 2.599767e-03 1.111051e-03 9.914795e-01 -7.722481e-03 9.914797e-01 -7.699282e-03 2.601718e-03 1.135271e-03
1.035000e+09 2.586480e-03 1.158892e-03 9.914560e-01 -7.800511e-03 9.914562e-01 -7.776970e-03 2.588456e-03 1.183453e-03
1.050000e+09 2.573609e-03 1.206623e-03 9.914329e-01 -7.878534e-03 9.914331e-01 -7.854652e-03 2.575610e-03 1.231526e-03
1.065000e+09 2.561140e-03 1.254256e-03 9.914101e-01 -7.956536e-03 9.914103e-01 -7.932312e-03 2.563167e-03 1.279501e-03
1.080000e+09 2.549062e-03 1.301802e-03 9.913875e-01 -8.034503e-03 9.913878e-01 -8.009938e-03 2.551114e-03 1.327389e-03
1.095000e+09 2.537366e-03 1.349272e-03 9.913653e-01 -8.112424e-03 9.913655e-01 -8.087517e-03 2.539443e-03 1.375200e-03
1.110000e+09 2.526043e-03 1.396674e-03 9.913433e-01 -8.190289e-03 9.913436e-01 -8.165041e-03 2.528145e-03 1.422944e-03
1.125000e+09 2.515089e-03 1.444016e-03 9.913217e-01 -8.268092e-03 9.913219e-01 -8.242503e-03 2.517216e-03 1.470628e-03
1.140000e+09 2.504499e-03 1.491306e-03 9.913003e-01 -8.345827e-03 9.913006e-01 -8.319897e-03 2.506650e-03 1.518260e-03
1.155000e+09 2.494271e-03 1.538549e-03 9.912793e-01 -8.423491e-03 9.912796e-01 -8.397221e-03 2.496447e-03 1.565845e-03
1.170000e+09 2.484402e-03 1.585749e-03 9.912586e-01 -8.501084e-03 9.912589e-01 -8.474473e-03 2.486603e-03 1.613387e-03
1.185000e+09 2.474893e-03 1.632908e-03 9.912381e-01 -8.578607e-03 9.912385e-01 -8.551655e-03 2.477119e-03 1.660888e-03
1.200000e+09 2.465743e-03 1.680029e-03 9.912181e-01 -8.656063e-03 9.912184e-01 -8.628771e-03 2.467993e-03 1.708351e-03
1.215000e+09 2.456953e-03 1.727111e-03 9.911983e-01 -8.733458e-03 9.911986e-01 -8.705825e-03 2.459227e-03 1.755776e-03
1.230000e+09 2.448523e-03 1.774153e-03 9.911789e-01 -8.810798e-03 9.911792e-01 -8.782825e-03 2.450821e-03 1.803160e-03
1.245000e+09 2.440453e-03 1.821152e-03 9.911598e-01 -8.888092e-03 9.911601e-01 -8.859778e-03 2.442775e-03 1.850502e-03
1.260000e+09 2.432744e-03 1.868105e-03 9.911411e-01 -8.965349e-03 9.911414e-01 -8.936695e-03 2.435090e-03 1.897797e-03
1.275000e+09 2.425395e-03 1.915007e-03 9.911227e-01 -9.042581e-03 9.911230e-01 -9.013587e-03 2.427765e-03 1.945042e-03
1.290000e+09 2.418407e-03 1.961852e-03 9.911046e-01 -9.119799e-03 9.911050e-01 -9.090465e-03 2.420800e-03 1.992229e-03
1.305000e+09 2.411778e-03 2.008633e-03 9.910869e-01 -9.197016e-03 9.910873e-01 -9.167341e-03 2.414195e-03 2.039354e-03
1.320000e+09 2.405507e-03 2.055344e-03 9.910695e-01 -9.274245e-03 9.910699e-01 -9.244230e-03 2.407947e-03 2.086408e-03
1.335000e+09 2.399590e-03 2.101977e-03 9.910525e-01 -9.351499e-03 9.910529e-01 -9.321144e-03 2.402053e-03 2.133383e-03
1.350000e+09 2.394026e-03 2.148522e-03 9.910358e-01 -9.428792e-03 9.910362e-01 -9.398097e-03 2.396512e-03 2.180272e-03
1.365000e+09 2.388809e-03 2.194973e-03 9.910195e-01 -9.506137e-03 9.910198e-01 -9.475102e-03 2.391318e-03 2.227066e-03
1.380000e+09 2.383936e-03 2.241319e-03 9.910034e-01 -9.583548e-03 9.910038e-01 -9.552172e-03 2.386467e-03 2.273755e-03
1.395000e+09 2.379399e-03 2.287552e-03 9.909877e-01 -9.661036e-03 9.909881e-01 -9.629321e-03 2.381953e-03 2.320332e-03
1.410000e+09 2.375193e-03 2.333663e-03 9.909722e-01 -9.738615e-03 9.909726e-01 -9.706559e-03 2.377769e-03 2.366787e-03
1.425000e+09 2.371310e-03 2.379645e-03 9.909571e-01 -9.816296e-03 9.909575e-01 -9.783899e-03 2.373908e-03 2.413112e-03
1.440000e+09 2.367742e-03 2.425488e-03 9.909422e-01 -9.894088e-03 9.909426e-01 -9.861351e-03 2.370362e-03 2.459299e-03
1.455000e+09 2.364479e-03 2.471185e-03 9.909276e-01 -9.972001e-03 9.909280e-01 -9.938924e-03 2.367121e-03 2.505340e-03
1.470000e+09 2.361513e-03 2.516729e-03 9.909133e-01 -1.005004e-02 9.909137e-01 -1.001663e-02 2.364175e-03 2.551227e-03
1.485000e+09 2.358832e-03 2.562112e-03 9.908991e-01 -1.012822e-02 9.908996e-01 -1.009446e-02 2.361516e-03 2.596955e-03
1.500000e+09 2.356426e-03 2.607330e-03 9.908852e-01 -1.020654e-02 9.908857e-01 -1.017245e-02 2.359131e-03 2.642517e-03
1.515000e+09 2.354283e-03 2.652377e-03 9.908715e-01 -1.028501e-02 9.908720e-01 -1.025057e-02 2.357009e-03 2.687908e-03
1.530000e+09 2.352392e-03 2.697249e-03 9.908580e-01 -1.036363e-02 9.908585e-01 -1.032885e-02 2.355139e-03 2.733124e-03
1.545000e+09 2.350741e-03 2.741941e-03 9.908447e-01 -1.044240e-02 9.908452e-01 -1.040728e-02 2.353508e-03 2.778160e-03
1.560000e+09 2.349317e-03 2.786452e-03 9.908315e-01 -1.052132e-02 9.908320e-01 -1.048586e-02 2.352106e-03 2.823015e-03
1.575000e+09 2.348109e-03 2.830779e-03 9.908185e-01 -1.060039e-02 9.908190e-01 -1.056459e-02 2.350918e-03 2.867687e-03
1.590000e+09 2.347105e-03 2.874923e-03 9.908056e-01 -1.067961e-02 9.908061e-01 -1.064347e-02 2.349934e-03 2.912174e-03
1.605000e+09 2.346292e-03 2.918881e-03 9.907928e-01 -1.075897e-02 9.907933e-01 -1.072250e-02 2.349140e-03 2.956477e-03
1.620000e+09 2.345658e-03 2.962656e-03 9.907801e-01 -1.083848e-02 9.907806e-01 -1.080167e-02 2.348526e-03 3.000596e-03
1.635000e+09 2.345192e-03 3.006249e-03 9.907675e-01 -1.091813e-02 9.907680e-01 -1.088097e-02 2.348080e-03 3.044533e-03
1.650000e+09 2.344883e-03 3.049663e-03 9.907550e-01 -1.099790e-02 9.907555e-01 -1.096040e-02 2.347790e-03 3.088290e-03
1.665000e+09 2.344719e-03 3.092900e-03 9.907425e-01 -1.107780e-02 9.907430e-01 -1.103996e-02 2.347646e-03 3.131871e-03
1.680000e+09 2.344691e-03 3.135964e-03 9.907301e-01 -1.115781e-02 9.907306e-01 -1.111963e-02 2.347638e-03 3.175279e-03
1.695000e+09 2.344790e-03 3.178861e-03 9.907177e-01 -1.123793e-02 9.907183e-01 -1.119941e-02 2.347755e-03 3.218519e-03
1.710000e+09 2.345005e-03 3.221594e-03 9.907054e-01 -1.131814e-02 9.907059e-01 -1.127929e-02 2.347989e-03 3.261596e-03
1.725000e+09 2.345329e-03 3.264170e-03 9.906931e-01 -1.139845e-02 9.906936e-01 -1.135926e-02 2.348331e-03 3.304516e-03
1.740000e+09 2.345753e-03 3.306594e-03 9.906808e-01 -1.147883e-02 9.906814e-01 -1.143930e-02 2.348774e-03 3.347283e-03
1.755000e+09 2.346272e-03 3.348873e-03 9.906686e-01 -1.155929e-02 9.906691e-01 -1.151942e-02 2.349311e-03 3.389906e-03
1.770000e+09 2.346879e-03 3.391013e-03 9.906563e-01 -1.163980e-02 9.906569e-01 -1.159959e-02 2.349936e-03 3.432389e-03
1.785000e+09 2.347568e-03 3.433021e-03 9.906441e-01 -1.172036e-02 9.906447e-01 -1.167982e-02 2.350643e-03 3.474740e-03
1.800000e+09 2.348335e-03 3.474904e-03 9.906319e-01 -1.180097e-02 9.906324e-01 -1.176008e-02 2.351427e-03 3.516966e-03
1.815000e+09 2.349177e-03 3.516669e-03 9.906196e-01 -1.188161e-02 9.906202e-01 -1.184038e-02 2.352286e-03 3.559073e-03
1.830000e+09 2.350089e-03 3.558322e-03 9.906074e-01 -1.196227e-02 9.906080e-01 -1.192071e-02 2.353216e-03 3.601069e-03
1.845000e+09 2.351070e-03 3.599870e-03 9.905952e-01 -1.204295e-02 9.905959e-01 -1.200105e-02 2.354213e-03 3.642960e-03
1.860000e+09 2.352118e-03 3.641320e-03 9.905831e-01 -1.212363e-02 9.905837e-01 -1.208139e-02 2.355278e-03 3.684752e-03
1.875000e+09 2.353231e-03 3.682678e-03 9.905709e-01 -1.220432e-02 9.905715e-01 -1.216174e-02 2.356408e-03 3.726452e-03
1.890000e+09 2.354411e-03 3.723949e-03 9.905587e-01 -1.228500e-02 9.905594e-01 -1.224209e-02 2.357604e-03 3.768066e-03
1.905000e+09 2.355656e-03 3.765140e-03 9.905466e-01 -1.236567e-02 9.905473e-01 -1.232242e-02 2.358865e-03 3.809599e-03
1.920000e+09 2.356967e-03 3.806256e-03 9.905345e-01 -1.244633e-02 9.905352e-01 -1.240275e-02 2.360192e-03 3.851056e-03
1.935000e+09 2.358346e-03 3.847301e-03 9.905224e-01 -1.252697e-02 9.905231e-01 -1.248305e-02 2.361587e-03 3.892443e-03
1.950000e+09 2.359793e-03 3.888279e-03 9.905104e-01 -1.260759e-02 9.905111e-01 -1.256333e-02 2.363050e-03 3.933763e-03
1.965000e+09 2.361312e-03 3.929195e-03 9.904984e-01 -1.268819e-02 9.904991e-01 -1.264359e-02 2.364584e-03 3.975020e-03
1.980000e+09 2.362903e-03 3.970052e-03 9.904865e-01 -1.276876e-02 9.904872e-01 -1.272382e-02 2.366191e-03 4.016217e-03
1.995000e+09 2.364570e-03 4.010852e-03 9.904746e-01 -1.284930e-02 9.904753e-01 -1.280403e-02 2.367872e-03 4.057358e-03
2.010000e+09 2.366315e-03 4.051597e-03 9.904627e-01 -1.292982e-02 9.904635e-01 -1.288421e-02 2.369632e-03 4.098444e-03
2.025000e+09 2.368140e-03 4.092289e-03 9.904510e-01 -1.301032e-02 9.904517e-01 -1.296437e-02 2.371472e-03 4.139477e-03
2.040000e+09 2.370048e-03 4.132929e-03 9.904392e-01 -1.309079e-02 9.904400e-01 -1.304451e-02 2.373394e-03 4.180458e-03
2.055000e+09 2.372042e-03 4.173518e-03 9.904276e-01 -1.317124e-02 9.904284e-01 -1.312462e-02 2.375402e-03 4.221387e-03
2.070000e+09 2.374123e-03 4.214056e-03 9.904160e-01 -1.325167e-02 9.904168e-01 -1.320472e-02 2.377499e-03 4.262265e-03
2.085000e+09 2.376296e-03 4.254542e-03 9.904045e-01 -1.333209e-02 9.904053e-01 -1.328480e-02 2.379685e-03 4.303091e-03
2.100000e+09 2.378561e-03 4.294976e-03 9.903930e-01 -1.341250e-02 9.903939e-01 -1.336487e-02 2.381964e-03 4.343864e-03
2.115000e+09 2.380920e-03 4.335356e-03 9.903817e-01 -1.349290e-02 9.903825e-01 -1.344493e-02 2.384337e-03 4.384584e-03
2.130000e+09 2.383376e-03 4.375681e-03 9.903704e-01 -1.357329e-02 9.903712e-01 -1.352499e-02 2.386807e-03 4.425248e-03
2.145000e+09 2.385929e-03 4.415948e-03 9.903592e-01 -1.365369e-02 9.903600e-01 -1.360505e-02 2.389374e-03 4.465855e-03
2.160000e+09 2.388581e-03 4.456156e-03 9.903481e-01 -1.373409e-02 9.903489e-01 -1.368511e-02 2.392040e-03 4.506402e-03
2.175000e+09 2.391332e-03 4.496302e-03 9.903370e-01 -1.381450e-02 9.903379e-01 -1.376519e-02 2.394805e-03 4.546888e-03
2.190000e+09 2.394183e-03 4.536384e-03 9.903261e-01 -1.389492e-02 9.903269e-01 -1.384528e-02 2.397669e-03 4.587308e-03
2.205000e+09 2.397134e-03 4.576399e-03 9.903152e-01 -1.397537e-02 9.903161e-01 -1.392538e-02 2.400634e-03 4.627661e-03
2.220000e+09 2.400184e-03 4.616343e-03 9.903044e-01 -1.405583e-02 9.903053e-01 -1.400551e-02 2.403697e-03 4.667944e-03
2.235000e+09 2.403332e-03 4.656215e-03 9.902936e-01 -1.413633e-02 9.902945e-01 -1.408567e-02 2.406859e-03 4.708154e-03
2.250000e+09 2.406577e-03 4.696011e-03 9.902829e-01 -1.421685e-02 9.902839e-01 -1.416586e-02 2.410117e-03 4.748288e-03
2.265000e+09 2.409918e-03 4.735728e-03 9.902723e-01 -1.429741e-02 9.902733e-01 -1.424608e-02 2.413472e-03 4.788343e-03
2.280000e+09 2.413352e-03 4.775364e-03 9.902618e-01 -1.437800e-02 9.902627e-01 -1.432634e-02 2.416919e-03 4.828317e-03
2.295000e+09 2.416877e-03 4.814916e-03 9.902513e-01 -1.445864e-02 9.902522e-01 -1.440664e-02 2.420458e-03 4.868207e-03
2.310000e+09 2.420491e-03 4.854382e-03 9.902408e-01 -1.453932e-02 9.902418e-01 -1.448698e-02 2.424086e-03 4.908010e-03
2.325000e+09 2.424190e-03 4.893760e-03 9.902304e-01 -1.462004e-02 9.902314e-01 -1.456736e-02 2.427799e-03 4.947725e-03
2.340000e+09 2.427972e-03 4.933047e-03 9.902200e-01 -1.470080e-02 9.902210e-01 -1.464779e-02 2.431595e-03 4.987349e-03
2.355000e+09 2.431833e-03 4.972243e-03 9.902097e-01 -1.478161e-02 9.902107e-01 -1.472826e-02 2.435470e-03 5.026882e-03
2.370000e+09 2.435769e-03 5.011345e-03 9.901994e-01 -1.486247e-02 9.902004e-01 -1.480878e-02 2.439420e-03 5.066320e-03
2.385000e+09 2.439777e-03 5.050353e-03 9.901891e-01 -1.494337e-02 9.901902e-01 -1.488935e-02 2.443442e-03 5.105665e-03
2.400000e+09 2.443853e-03 5.089266e-03 9.901789e-01 -1.502432e-02 9.901799e-01 -1.496996e-02 2.447532e-03 5.144914e-03
2.415000e+09 2.447992e-03 5.128084e-03 9.901686e-01 -1.510531e-02 9.901697e-01 -1.505061e-02 2.451686e-03 5.184068e-03
2.430000e+09 2.452191e-03 5.166807e-03 9.901584e-01 -1.518634e-02 9.901595e-01 -1.513130e-02 2.455899e-03 5.223126e-03
2.445000e+09 2.456446e-03 5.205434e-03 9.901482e-01 -1.526740e-02 9.901493e-01 -1.521203e-02 2.460169e-03 5.262089e-03
2.460000e+09 2.460753e-03 5.243968e-03 9.901379e-01 -1.534851e-02 9.901391e-01 -1.529280e-02 2.464491e-03 5.300958e-03
2.475000e+09 2.465108e-03 5.282408e-03 9.901277e-01 -1.542965e-02 9.901288e-01 -1.537360e-02 2.468860e-03 5.339733e-03
2.490000e+09 2.469507e-03 5.320757e-03 9.901175e-01 -1.551081e-02 9.901186e-01 -1.545443e-02 2.473274e-03 5.378416e-03
