#   Hz   S  RI   R   50
!
0.000000e+00 1.881673e-02 0.000000e+00 9.757482e-01 0.000000e+00 9.757484e-01 0.000000e+00 1.881296e-02 0.000000e+00
1.500000e+07 1.881352e-02 1.080814e-03 9.757481e-01 -1.436899e-03 9.757483e-01 -1.436897e-03 1.880977e-02 1.080273e-03
3.000000e+07 1.880390e-02 2.162163e-03 9.757475e-01 -2.873992e-03 9.757478e-01 -2.873987e-03 1.880019e-02 2.161080e-03
4.500000e+07 1.878794e-02 3.244577e-03 9.757466e-01 -4.311470e-03 9.757469e-01 -4.311463e-03 1.878430e-02 3.242952e-03
6.000000e+07 1.876573e-02 4.328584e-03 9.757453e-01 -5.749524e-03 9.757455e-01 -5.749515e-03 1.876219e-02 4.326413e-03
7.500000e+07 1.873740e-02 5.414698e-03 9.757435e-01 -7.188340e-03 9.757437e-01 -7.188328e-03 1.873398e-02 5.411979e-03
9.000000e+07 1.870312e-02 6.503423e-03 9.757412e-01 -8.628098e-03 9.757414e-01 -8.628084e-03 1.869986e-02 6.500153e-03
1.050000e+08 1.866310e-02 7.595248e-03 9.757382e-01 -1.006897e-02 9.757384e-01 -1.006896e-02 1.866001e-02 7.591422e-03
1.200000e+08 1.861757e-02 8.690645e-03 9.757345e-01 -1.151114e-02 9.757347e-01 -1.151112e-02 1.861469e-02 8.686258e-03
1.350000e+08 1.856680e-02 9.790064e-03 9.757300e-01 -1.295474e-02 9.757302e-01 -1.295472e-02 1.856415e-02 9.785112e-03
1.500000e+08 1.851109e-02 1.089393e-02 9.757245e-01 -1.439995e-02 9.757247e-01 -1.439993e-02 1.850869e-02 1.088841e-02
1.650000e+08 1.845075e-02 1.200266e-02 9.757178e-01 -1.584689e-02 9.757180e-01 -1.584687e-02 1.844864e-02 1.199656e-02
1.800000e+08 1.838615e-02 1.311662e-02 9.757100e-01 -1.729570e-02 9.757102e-01 -1.729568e-02 1.838434e-02 1.310993e-02
1.950000e+08 1.831765e-02 1.423617e-02 9.757007e-01 -1.874651e-02 9.757008e-01 -1.874648e-02 1.831616e-02 1.422889e-02
2.100000e+08 1.824564e-02 1.536163e-02 9.756898e-01 -2.019941e-02 9.756900e-01 -2.019938e-02 1.824449e-02 1.535375e-02
2.250000e+08 1.817052e-02 1.649329e-02 9.756771e-01 -2.165450e-02 9.756773e-01 -2.165447e-02 1.816974e-02 1.648480e-02
2.400000e+08 1.809271e-02 1.763141e-02 9.756626e-01 -2.311188e-02 9.756627e-01 -2.311185e-02 1.809232e-02 1.762230e-02
2.550000e+08 1.801265e-02 1.877624e-02 9.756459e-01 -2.457160e-02 9.756461e-01 -2.457157e-02 1.801267e-02 1.876650e-02
2.700000e+08 1.793078e-02 1.992796e-02 9.756269e-01 -2.603375e-02 9.756271e-01 -2.603371e-02 1.793121e-02 1.991759e-02
2.850000e+08 1.784753e-02 2.108676e-02 9.756054e-01 -2.749835e-02 9.756056e-01 -2.749832e-02 1.784841e-02 2.107574e-02
3.000000e+08 1.776336e-02 2.225277e-02 9.755813e-01 -2.896545e-02 9.755814e-01 -2.896541e-02 1.776470e-02 2.224110e-02
3.150000e+08 1.767872e-02 2.342611e-02 9.755543e-01 -3.043507e-02 9.755544e-01 -3.043504e-02 1.768052e-02 2.341377e-02
3.300000e+08 1.759406e-02 2.460686e-02 9.755242e-01 -3.190723e-02 9.755243e-01 -3.190719e-02 1.759634e-02 2.459384e-02
3.450000e+08 1.750982e-02 2.579507e-02 9.754908e-01 -3.338192e-02 9.754910e-01 -3.338189e-02 1.751259e-02 2.578137e-02
3.600000e+08 1.742643e-02 2.699077e-02 9.754541e-01 -3.485914e-02 9.754542e-01 -3.485911e-02 1.742972e-02 2.697638e-02
3.750000e+08 1.734434e-02 2.819397e-02 9.754137e-01 -3.633888e-02 9.754138e-01 -3.633884e-02 1.734814e-02 2.817887e-02
3.900000e+08 1.726396e-02 2.940464e-02 9.753695e-01 -3.782109e-02 9.753696e-01 -3.782105e-02 1.726829e-02 2.938882e-02
4.050000e+08 1.718571e-02 3.062274e-02 9.753213e-01 -3.930574e-02 9.753214e-01 -3.930571e-02 1.719057e-02 3.060619e-02
4.200000e+08 1.710998e-02 3.184820e-02 9.752690e-01 -4.079279e-02 9.752691e-01 -4.079276e-02 1.711539e-02 3.183092e-02
4.350000e+08 1.703717e-02 3.308093e-02 9.752124e-01 -4.228218e-02 9.752125e-01 -4.228215e-02 1.704313e-02 3.306290e-02
4.500000e+08 1.696765e-02 3.432083e-02 9.751514e-01 -4.377386e-02 9.751515e-01 -4.377383e-02 1.697416e-02 3.430204e-02
4.650000e+08 1.690178e-02 3.556778e-02 9.750857e-01 -4.526774e-02 9.750858e-01 -4.526772e-02 1.690885e-02 3.554822e-02
4.800000e+08 1.683991e-02 3.682163e-02 9.750153e-01 -4.676376e-02 9.750154e-01 -4.676374e-02 1.684754e-02 3.680129e-02
4.950000e+08 1.678235e-02 3.808223e-02 9.749399e-01 -4.826184e-02 9.749400e-01 -4.826182e-02 1.679055e-02 3.806111e-02
5.100000e+08 1.672942e-02 3.934942e-02 9.748596e-01 -4.976190e-02 9.748597e-01 -4.976187e-02 1.673819e-02 3.932750e-02
5.250000e+08 1.668143e-02 4.062303e-02 9.747741e-01 -5.126383e-02 9.747742e-01 -5.126381e-02 1.669077e-02 4.060030e-02
5.400000e+08 1.663864e-02 4.190285e-02 9.746833e-01 -5.276756e-02 9.746834e-01 -5.276754e-02 1.664855e-02 4.187931e-02
5.550000e+08 1.660131e-02 4.318871e-02 9.745872e-01 -5.427298e-02 9.745873e-01 -5.427296e-02 1.661180e-02 4.316434e-02
5.700000e+08 1.656971e-02 4.448039e-02 9.744856e-01 -5.577999e-02 9.744857e-01 -5.577998e-02 1.658077e-02 4.445519e-02
5.850000e+08 1.654404e-02 4.577770e-02 9.743785e-01 -5.728850e-02 9.743785e-01 -5.728849e-02 1.655567e-02 4.575165e-02
6.000000e+08 1.652453e-02 4.708041e-02 9.742656e-01 -5.879840e-02 9.742657e-01 -5.879839e-02 1.653674e-02 4.705351e-02
6.150000e+08 1.651138e-02 4.838830e-02 9.741471e-01 -6.030958e-02 9.741471e-01 -6.030957e-02 1.652415e-02 4.836055e-02
6.300000e+08 1.650476e-02 4.970117e-02 9.740227e-01 -6.182195e-02 9.740228e-01 -6.182194e-02 1.651810e-02 4.967255e-02
6.450000e+08 1.650484e-02 5.101879e-02 9.738925e-01 -6.333539e-02 9.738925e-01 -6.333539e-02 1.651874e-02 5.098928e-02
6.600000e+08 1.651177e-02 5.234093e-02 9.737563e-01 -6.484980e-02 9.737564e-01 -6.484980e-02 1.652624e-02 5.231054e-02
6.750000e+08 1.652570e-02 5.366737e-02 9.736142e-01 -6.636507e-02 9.736142e-01 -6.636508e-02 1.654072e-02 5.363609e-02
6.900000e+08 1.654674e-02 5.499789e-02 9.734660e-01 -6.788110e-02 9.734660e-01 -6.788111e-02 1.656231e-02 5.496572e-02
7.050000e+08 1.657500e-02 5.633228e-02 9.733118e-01 -6.939778e-02 9.733118e-01 -6.939780e-02 1.659113e-02 5.629919e-02
7.200000e+08 1.661059e-02 5.767030e-02 9.731514e-01 -7.091501e-02 9.731514e-01 -7.091503e-02 1.662727e-02 5.763630e-02
7.350000e+08 1.665360e-02 5.901174e-02 9.729849e-01 -7.243269e-02 9.729849e-01 -7.243271e-02 1.667082e-02 5.897683e-02
7.500000e+08 1.670409e-02 6.035640e-02 9.728122e-01 -7.395071e-02 9.728122e-01 -7.395073e-02 1.672185e-02 6.032055e-02
7.650000e+08 1.676214e-02 6.170405e-02 9.726334e-01 -7.546897e-02 9.726334e-01 -7.546899e-02 1.678044e-02 6.166727e-02
7.800000e+08 1.682780e-02 6.305448e-02 9.724483e-01 -7.698737e-02 9.724483e-01 -7.698740e-02 1.684662e-02 6.301676e-02
7.950000e+08 1.690111e-02 6.440751e-02 9.722570e-01 -7.850582e-02 9.722570e-01 -7.850585e-02 1.692046e-02 6.436884e-02
8.100000e+08 1.698212e-02 6.576291e-02 9.720595e-01 -8.002421e-02 9.720595e-01 -8.002425e-02 1.700198e-02 6.572330e-02
8.250000e+08 1.707084e-02 6.712051e-02 9.718558e-01 -8.154247e-02 9.718558e-01 -8.154251e-02 1.709122e-02 6.707994e-02
8.400000e+08 1.716730e-02 6.848011e-02 9.716458e-01 -8.306048e-02 9.716458e-01 -8.306053e-02 1.718819e-02 6.843857e-02
8.550000e+08 1.727151e-02 6.984151e-02 9.714296e-01 -8.457817e-02 9.714296e-01 -8.457822e-02 1.729291e-02 6.979900e-02
8.700000e+08 1.738348e-02 7.120455e-02 9.712072e-01 -8.609545e-02 9.712072e-01 -8.609550e-02 1.740537e-02 7.116106e-02
8.850000e+08 1.750321e-02 7.256903e-02 9.709785e-01 -8.761223e-02 9.709785e-01 -8.761228e-02 1.752560e-02 7.252457e-02
9.000000e+08 1.763069e-02 7.393480e-02 9.707437e-01 -8.912842e-02 9.707437e-01 -8.912847e-02 1.765356e-02 7.388935e-02
9.150000e+08 1.776591e-02 7.530168e-02 9.705027e-01 -9.064394e-02 9.705027e-01 -9.064400e-02 1.778926e-02 7.525524e-02
9.300000e+08 1.790885e-02 7.666951e-02 9.702555e-01 -9.215872e-02 9.702555e-01 -9.215878e-02 1.793268e-02 7.662207e-02
9.450000e+08 1.805949e-02 7.803813e-02 9.700021e-01 -9.367268e-02 9.700021e-01 -9.367274e-02 1.808379e-02 7.798969e-02
9.600000e+08 1.821780e-02 7.940739e-02 9.697426e-01 -9.518573e-02 9.697426e-01 -9.518580e-02 1.824257e-02 7.935795e-02
9.750000e+08 1.838375e-02 8.077713e-02 9.694770e-01 -9.669781e-02 9.694770e-01 -9.669788e-02 1.840899e-02 8.072669e-02
9.900000e+08 1.855731e-02 8.214723e-02 9.692054e-01 -9.820885e-02 9.692054e-01 -9.820892e-02 1.858301e-02 8.209577e-02
1.005000e+09 1.873845e-02 8.351753e-02 9.689276e-01 -9.971877e-02 9.689276e-01 -9.971885e-02 1.876460e-02 8.346506e-02
1.020000e+09 1.892712e-02 8.488791e-02 9.686439e-01 -1.012275e-01 9.686439e-01 -1.012276e-01 1.895371e-02 8.483441e-02
1.035000e+09 1.912327e-02 8.625824e-02 9.683541e-01 -1.027350e-01 9.683541e-01 -1.027351e-01 1.915031e-02 8.620371e-02
1.050000e+09 1.932687e-02 8.762838e-02 9.680583e-01 -1.042412e-01 9.680584e-01 -1.042413e-01 1.935435e-02 8.757282e-02
1.065000e+09 1.953786e-02 8.899822e-02 9.677567e-01 -1.057460e-01 9.677567e-01 -1.057461e-01 1.956577e-02 8.894163e-02
1.080000e+09 1.975620e-02 9.036764e-02 9.674491e-01 -1.072493e-01 9.674491e-01 -1.072494e-01 1.978454e-02 9.031001e-02
1.095000e+09 1.998183e-02 9.173653e-02 9.671356e-01 -1.087512e-01 9.671356e-01 -1.087513e-01 2.001060e-02 9.167786e-02
1.110000e+09 2.021471e-02 9.310478e-02 9.668163e-01 -1.102515e-01 9.668163e-01 -1.102516e-01 2.024390e-02 9.304506e-02
1.125000e+09 2.045477e-02 9.447229e-02 9.664911e-01 -1.117502e-01 9.664912e-01 -1.117503e-01 2.048438e-02 9.441152e-02
1.140000e+09 2.070196e-02 9.583895e-02 9.661602e-01 -1.132473e-01 9.661603e-01 -1.132474e-01 2.073199e-02 9.577713e-02
1.155000e+09 2.095623e-02 9.720467e-02 9.658236e-01 -1.147426e-01 9.658237e-01 -1.147427e-01 2.098666e-02 9.714179e-02
1.170000e+09 2.121751e-02 9.856935e-02 9.654813e-01 -1.162361e-01 9.654813e-01 -1.162363e-01 2.124836e-02 9.850541e-02
1.185000e+09 2.148575e-02 9.993291e-02 9.651333e-01 -1.177279e-01 9.651333e-01 -1.177280e-01 2.151700e-02 9.986790e-02
1.200000e+09 2.176089e-02 1.012952e-01 9.647796e-01 -1.192178e-01 9.647797e-01 -1.192179e-01 2.179255e-02 1.012292e-01
1.215000e+09 2.204287e-02 1.026563e-01 9.644204e-01 -1.207058e-01 9.644205e-01 -1.207059e-01 2.207493e-02 1.025892e-01
1.230000e+09 2.233164e-02 1.040160e-01 9.640557e-01 -1.221918e-01 9.640557e-01 -1.221919e-01 2.236409e-02 1.039477e-01
1.245000e+09 2.262712e-02 1.053742e-01 9.636854e-01 -1.236758e-01 9.636855e-01 -1.236759e-01 2.265996e-02 1.053049e-01
1.260000e+09 2.292926e-02 1.067308e-01 9.633096e-01 -1.251578e-01 9.633097e-01 -1.251579e-01 2.296250e-02 1.066605e-01
1.275000e+09 2.323800e-02 1.080859e-01 9.629284e-01 -1.266377e-01 9.629285e-01 -1.266378e-01 2.327163e-02 1.080145e-01
1.290000e+09 2.355329e-02 1.094393e-01 9.625419e-01 -1.281155e-01 9.625420e-01 -1.281156e-01 2.358729e-02 1.093668e-01
1.305000e+09 2.387504e-02 1.107910e-01 9.621499e-01 -1.295911e-01 9.621500e-01 -1.295912e-01 2.390944e-02 1.107173e-01
1.320000e+09 2.420322e-02 1.121408e-01 9.617526e-01 -1.310645e-01 9.617528e-01 -1.310646e-01 2.423800e-02 1.120661e-01
1.335000e+09 2.453775e-02 1.134888e-01 9.613501e-01 -1.325357e-01 9.613502e-01 -1.325358e-01 2.457291e-02 1.134130e-01
1.350000e+09 2.487859e-02 1.148349e-01 9.609423e-01 -1.340046e-01 9.609424e-01 -1.340047e-01 2.491412e-02 1.147580e-01
1.365000e+09 2.522565e-02 1.161789e-01 9.605293e-01 -1.354712e-01 9.605294e-01 -1.354713e-01 2.526157e-02 1.161009e-01
1.380000e+09 2.557890e-02 1.175210e-01 9.601112e-01 -1.369354e-01 9.601113e-01 -1.369356e-01 2.561519e-02 1.174419e-01
1.395000e+09 2.593826e-02 1.188609e-01 9.596879e-01 -1.383973e-01 9.596880e-01 -1.383974e-01 2.597493e-02 1.187807e-01
1.410000e+09 2.630369e-02 1.201987e-01 9.592595e-01 -1.398568e-01 9.592597e-01 -1.398569e-01 2.634072e-02 1.201174e-01
1.425000e+09 2.667511e-02 1.215343e-01 9.588261e-01 -1.413138e-01 9.588263e-01 -1.413140e-01 2.671252e-02 1.214519e-01
1.440000e+09 2.705247e-02 1.228677e-01 9.583877e-01 -1.427684e-01 9.583878e-01 -1.427685e-01 2.709026e-02 1.227841e-01
1.455000e+09 2.743572e-02 1.241987e-01 9.579443e-01 -1.442204e-01 9.579444e-01 -1.442206e-01 2.747388e-02 1.241141e-01
1.470000e+09 2.782480e-02 1.255275e-01 9.574959e-01 -1.456700e-01 9.574961e-01 -1.456701e-01 2.786333e-02 1.254417e-01
1.485000e+09 2.821965e-02 1.268538e-01 9.570427e-01 -1.471170e-01 9.570429e-01 -1.471171e-01 2.825854e-02 1.267669e-01
1.500000e+09 2.862021e-02 1.281778e-01 9.565846e-01 -1.485614e-01 9.565848e-01 -1.485615e-01 2.865947e-02 1.280898e-01
1.515000e+09 2.902643e-02 1.294993e-01 9.561217e-01 -1.500031e-01 9.561219e-01 -1.500033e-01 2.906606e-02 1.294101e-01
1.530000e+09 2.943824e-02 1.308183e-01 9.556541e-01 -1.514423e-01 9.556543e-01 -1.514424e-01 2.947825e-02 1.307280e-01
1.545000e+09 2.985561e-02 1.321347e-01 9.551817e-01 -1.528788e-01 9.551819e-01 -1.528789e-01 2.989598e-02 1.320433e-01
1.560000e+09 3.027847e-02 1.334486e-01 9.547045e-01 -1.543126e-01 9.547047e-01 -1.543127e-01 3.031921e-02 1.333561e-01
1.575000e+09 3.070676e-02 1.347599e-01 9.542227e-01 -1.557437e-01 9.542230e-01 -1.557438e-01 3.074788e-02 1.346663e-01
1.590000e+09 3.114045e-02 1.360686e-01 9.537363e-01 -1.571720e-01 9.537365e-01 -1.571722e-01 3.118193e-02 1.359738e-01
1.605000e+09 3.157946e-02 1.373746e-01 9.532453e-01 -1.585976e-01 9.532455e-01 -1.585978e-01 3.162131e-02 1.372787e-01
1.620000e+09 3.202375e-02 1.386779e-01 9.527497e-01 -1.600204e-01 9.527500e-01 -1.600206e-01 3.206598e-02 1.385808e-01
1.635000e+09 3.247327e-02 1.399784e-01 9.522496e-01 -1.614405e-01 9.522499e-01 -1.614406e-01 3.251587e-02 1.398802e-01
1.650000e+09 3.292796e-02 1.412762e-01 9.517451e-01 -1.628577e-01 9.517453e-01 -1.628578e-01 3.297093e-02 1.411769e-01
1.665000e+09 3.338778e-02 1.425713e-01 9.512360e-01 -1.642720e-01 9.512363e-01 -1.642722e-01 3.343113e-02 1.424708e-01
1.680000e+09 3.385268e-02 1.438635e-01 9.507226e-01 -1.656835e-01 9.507229e-01 -1.656837e-01 3.389640e-02 1.437619e-01
1.695000e+09 3.432259e-02 1.451529e-01 9.502048e-01 -1.670921e-01 9.502051e-01 -1.670923e-01 3.436669e-02 1.450501e-01
1.710000e+09 3.479749e-02 1.464394e-01 9.496827e-01 -1.684979e-01 9.496830e-01 -1.684980e-01 3.484196e-02 1.463355e-01
1.725000e+09 3.527731e-02 1.477231e-01 9.491562e-01 -1.699007e-01 9.491565e-01 -1.699008e-01 3.532216e-02 1.476180e-01
1.740000e+09 3.576200e-02 1.490038e-01 9.486255e-01 -1.713005e-01 9.486258e-01 -1.713007e-01 3.580723e-02 1.488976e-01
1.755000e+09 3.625153e-02 1.502816e-01 9.480906e-01 -1.726974e-01 9.480909e-01 -1.726976e-01 3.629714e-02 1.501742e-01
1.770000e+09 3.674584e-02 1.515564e-01 9.475514e-01 -1.740914e-01 9.475518e-01 -1.740915e-01 3.679183e-02 1.514479e-01
1.785000e+09 3.724488e-02 1.528283e-01 9.470082e-01 -1.754823e-01 9.470085e-01 -1.754825e-01 3.729125e-02 1.527187e-01
1.800000e+09 3.774861e-02 1.540972e-01 9.464607e-01 -1.768703e-01 9.464611e-01 -1.768704e-01 3.779537e-02 1.539864e-01
1.815000e+09 3.825698e-02 1.553631e-01 9.459092e-01 -1.782552e-01 9.459096e-01 -1.782554e-01 3.830413e-02 1.552511e-01
1.830000e+09 3.876996e-02 1.566259e-01 9.453536e-01 -1.796371e-01 9.453540e-01 -1.796373e-01 3.881749e-02 1.565128e-01
1.845000e+09 3.928748e-02 1.578858e-01 9.447940e-01 -1.810160e-01 9.447944e-01 -1.810161e-01 3.933541e-02 1.577714e-01
1.860000e+09 3.980951e-02 1.591425e-01 9.442305e-01 -1.823918e-01 9.442308e-01 -1.823919e-01 3.985783e-02 1.590270e-01
1.875000e+09 4.033600e-02 1.603962e-01 9.436629e-01 -1.837645e-01 9.436633e-01 -1.837646e-01 4.038471e-02 1.602795e-01
1.890000e+09 4.086691e-02 1.616467e-01 9.430915e-01 -1.851341e-01 9.430918e-01 -1.851343e-01 4.091602e-02 1.615289e-01
1.905000e+09 4.140220e-02 1.628942e-01 9.425161e-01 -1.865007e-01 9.425165e-01 -1.865008e-01 4.145171e-02 1.627752e-01
1.920000e+09 4.194182e-02 1.641385e-01 9.419369e-01 -1.878641e-01 9.419373e-01 -1.878642e-01 4.199173e-02 1.640184e-01
1.935000e+09 4.248572e-02 1.653797e-01 9.413539e-01 -1.892243e-01 9.413543e-01 -1.892245e-01 4.253604e-02 1.652584e-01
1.950000e+09 4.303388e-02 1.666177e-01 9.407671e-01 -1.905815e-01 9.407675e-01 -1.905816e-01 4.308460e-02 1.664952e-01
1.965000e+09 4.358624e-02 1.678526e-01 9.401766e-01 -1.919355e-01 9.401770e-01 -1.919356e-01 4.363737e-02 1.677289e-01
1.980000e+09 4.414277e-02 1.690842e-01 9.395823e-01 -1.932863e-01 9.395827e-01 -1.932864e-01 4.419430e-02 1.689594e-01
1.995000e+09 4.470342e-02 1.703127e-01 9.389843e-01 -1.946340e-01 9.389848e-01 -1.946341e-01 4.475536e-02 1.701868e-01
2.010000e+09 4.526815e-02 1.715380e-01 9.383827e-01 -1.959784e-01 9.383831e-01 -1.959786e-01 4.532051e-02 1.714109e-01
2.025000e+09 4.583692e-02 1.727601e-01 9.377775e-01 -1.973197e-01 9.377779e-01 -1.973199e-01 4.588970e-02 1.726318e-01
2.040000e+09 4.640970e-02 1.739789e-01 9.371687e-01 -1.986578e-01 9.371691e-01 -1.986579e-01 4.646290e-02 1.738494e-01
2.055000e+09 4.698644e-02 1.751945e-01 9.365563e-01 -1.999927e-01 9.365567e-01 -1.999928e-01 4.704006e-02 1.750639e-01
2.070000e+09 4.756710e-02 1.764069e-01 9.359404e-01 -2.013243e-01 9.359408e-01 -2.013245e-01 4.762114e-02 1.762750e-01
2.085000e+09 4.815165e-02 1.776160e-01 9.353210e-01 -2.026527e-01 9.353214e-01 -2.026529e-01 4.820612e-02 1.774830e-01
2.100000e+09 4.874004e-02 1.788218e-01 9.346981e-01 -2.039779e-01 9.346986e-01 -2.039780e-01 4.879494e-02 1.786876e-01
2.115000e+09 4.933224e-02 1.800244e-01 9.340718e-01 -2.052998e-01 9.340723e-01 -2.053000e-01 4.938758e-02 1.798890e-01
2.130000e+09 4.992822e-02 1.812237e-01 9.334422e-01 -2.066185e-01 9.334426e-01 -2.066187e-01 4.998398e-02 1.810871e-01
2.145000e+09 5.052792e-02 1.824197e-01 9.328091e-01 -2.079339e-01 9.328096e-01 -2.079341e-01 5.058412e-02 1.822820e-01
2.160000e+09 5.113132e-02 1.836124e-01 9.321727e-01 -2.092461e-01 9.321732e-01 -2.092462e-01 5.118796e-02 1.834735e-01
2.175000e+09 5.173838e-02 1.848018e-01 9.315330e-01 -2.105550e-01 9.315335e-01 -2.105551e-01 5.179546e-02 1.846617e-01
2.190000e+09 5.234906e-02 1.859879e-01 9.308901e-01 -2.118606e-01 9.308905e-01 -2.118607e-01 5.240659e-02 1.858466e-01
2.205000e+09 5.296332e-02 1.871707e-01 9.302439e-01 -2.131629e-01 9.302443e-01 -2.131630e-01 5.302130e-02 1.870282e-01
2.220000e+09 5.358114e-02 1.883501e-01 9.295944e-01 -2.144619e-01 9.295949e-01 -2.144620e-01 5.363957e-02 1.882065e-01
2.235000e+09 5.420246e-02 1.895262e-01 9.289418e-01 -2.157576e-01 9.289423e-01 -2.157577e-01 5.426135e-02 1.893814e-01
2.250000e+09 5.482727e-02 1.906990e-01 9.282861e-01 -2.170500e-01 9.282866e-01 -2.170502e-01 5.488661e-02 1.905530e-01
2.265000e+09 5.545552e-02 1.918685e-01 9.276272e-01 -2.183391e-01 9.276277e-01 -2.183393e-01 5.551532e-02 1.917213e-01
2.280000e+09 5.608717e-02 1.930346e-01 9.269653e-01 -2.196249e-01 9.269658e-01 -2.196251e-01 5.614744e-02 1.928863e-01
2.295000e+09 5.672220e-02 1.941974e-01 9.263003e-01 -2.209074e-01 9.263008e-01 -2.209075e-01 5.678294e-02 1.940479e-01
2.310000e+09 5.736057e-02 1.953568e-01 9.256322e-01 -2.221866e-01 9.256327e-01 -2.221867e-01 5.742178e-02 1.952061e-01
2.325000e+09 5.800225e-02 1.965129e-01 9.249612e-01 -2.234624e-01 9.249617e-01 -2.234625e-01 5.806392e-02 1.963610e-01
2.340000e+09 5.864719e-02 1.976656e-01 9.242872e-01 -2.247349e-01 9.242877e-01 -2.247351e-01 5.870934e-02 1.975125e-01
2.355000e+09 5.929537e-02 1.988150e-01 9.236102e-01 -2.260041e-01 9.236107e-01 -2.260042e-01 5.935800e-02 1.986607e-01
2.370000e+09 5.994676e-02 1.999610e-01 9.229303e-01 -2.272699e-01 9.229309e-01 -2.272701e-01 6.000987e-02 1.998055e-01
2.385000e+09 6.060132e-02 2.011037e-01 9.222476e-01 -2.285325e-01 9.222481e-01 -2.285326e-01 6.066491e-02 2.009470e-01
2.400000e+09 6.125902e-02 2.022430e-01 9.215620e-01 -2.297916e-01 9.215626e-01 -2.297918e-01 6.132309e-02 2.020851e-01
2.415000e+09 6.191982e-02 2.033789e-01 9.208736e-01 -2.310475e-01 9.208741e-01 -2.310477e-01 6.198438e-02 2.032198e-01
2.430000e+09 6.258369e-02 2.045114e-01 9.201824e-01 -2.323000e-01 9.201829e-01 -2.323002e-01 6.264875e-02 2.043512e-01
2.445000e+09 6.325061e-02 2.056406e-01 9.194884e-01 -2.335492e-01 9.194890e-01 -2.335493e-01 6.331616e-02 2.054792e-01
2.460000e+09 6.392054e-02 2.067664e-01 9.187917e-01 -2.347950e-01 9.187923e-01 -2.347952e-01 6.398659e-02 2.066038e-01
2.475000e+09 6.459344e-02 2.078889e-01 9.180923e-01 -2.360375e-01 9.180928e-01 -2.360377e-01 6.465999e-02 2.077251e-01
2.490000e+09 6.526929e-02 2.090080e-01 9.173902e-01 -2.372767e-01 9.173907e-01 -2.372768e-01 6.533635e-02 2.088430e-01
